Freq.	abs(V(drain))
1.00000000000000e+07	4.73424876624729e+01,0.00000000000000e+00
1.00004682920841e+07	4.73420740198268e+01,0.00000000000000e+00
1.00009366060979e+07	4.73416603438208e+01,0.00000000000000e+00
1.00014049420425e+07	4.73412466344519e+01,0.00000000000000e+00
1.00018732999190e+07	4.73408328917167e+01,0.00000000000000e+00
1.00023416797282e+07	4.73404191156133e+01,0.00000000000000e+00
1.00028100814713e+07	4.73400053061383e+01,0.00000000000000e+00
1.00032785051493e+07	4.73395914632887e+01,0.00000000000000e+00
1.00037469507632e+07	4.73391775870621e+01,0.00000000000000e+00
1.00042154183140e+07	4.73387636774553e+01,0.00000000000000e+00
1.00046839078028e+07	4.73383497344656e+01,0.00000000000000e+00
1.00051524192306e+07	4.73379357580901e+01,0.00000000000000e+00
1.00056209525984e+07	4.73375217483261e+01,0.00000000000000e+00
1.00060895079073e+07	4.73371077051704e+01,0.00000000000000e+00
1.00065580851582e+07	4.73366936286206e+01,0.00000000000000e+00
1.00070266843522e+07	4.73362795186733e+01,0.00000000000000e+00
1.00074953054904e+07	4.73358653753261e+01,0.00000000000000e+00
1.00079639485737e+07	4.73354511985758e+01,0.00000000000000e+00
1.00084326136032e+07	4.73350369884200e+01,0.00000000000000e+00
1.00089013005799e+07	4.73346227448554e+01,0.00000000000000e+00
1.00093700095049e+07	4.73342084678794e+01,0.00000000000000e+00
1.00098387403791e+07	4.73337941574892e+01,0.00000000000000e+00
1.00103074932036e+07	4.73333798136817e+01,0.00000000000000e+00
1.00107762679794e+07	4.73329654364540e+01,0.00000000000000e+00
1.00112450647076e+07	4.73325510258037e+01,0.00000000000000e+00
1.00117138833892e+07	4.73321365817274e+01,0.00000000000000e+00
1.00121827240252e+07	4.73317221042227e+01,0.00000000000000e+00
1.00126515866166e+07	4.73313075932863e+01,0.00000000000000e+00
1.00131204711645e+07	4.73308930489157e+01,0.00000000000000e+00
1.00135893776698e+07	4.73304784711081e+01,0.00000000000000e+00
1.00140583061337e+07	4.73300638598603e+01,0.00000000000000e+00
1.00145272565572e+07	4.73296492151696e+01,0.00000000000000e+00
1.00149962289412e+07	4.73292345370333e+01,0.00000000000000e+00
1.00154652232868e+07	4.73288198254483e+01,0.00000000000000e+00
1.00159342395951e+07	4.73284050804118e+01,0.00000000000000e+00
1.00164032778670e+07	4.73279903019211e+01,0.00000000000000e+00
1.00168723381036e+07	4.73275754899732e+01,0.00000000000000e+00
1.00173414203059e+07	4.73271606445652e+01,0.00000000000000e+00
1.00178105244750e+07	4.73267457656945e+01,0.00000000000000e+00
1.00182796506119e+07	4.73263308533580e+01,0.00000000000000e+00
1.00187487987175e+07	4.73259159075529e+01,0.00000000000000e+00
1.00192179687930e+07	4.73255009282763e+01,0.00000000000000e+00
1.00196871608394e+07	4.73250859155253e+01,0.00000000000000e+00
1.00201563748576e+07	4.73246708692974e+01,0.00000000000000e+00
1.00206256108488e+07	4.73242557895893e+01,0.00000000000000e+00
1.00210948688139e+07	4.73238406763983e+01,0.00000000000000e+00
1.00215641487540e+07	4.73234255297216e+01,0.00000000000000e+00
1.00220334506701e+07	4.73230103495564e+01,0.00000000000000e+00
1.00225027745633e+07	4.73225951358997e+01,0.00000000000000e+00
1.00229721204345e+07	4.73221798887486e+01,0.00000000000000e+00
1.00234414882848e+07	4.73217646081005e+01,0.00000000000000e+00
1.00239108781152e+07	4.73213492939522e+01,0.00000000000000e+00
1.00243802899268e+07	4.73209339463011e+01,0.00000000000000e+00
1.00248497237206e+07	4.73205185651443e+01,0.00000000000000e+00
1.00253191794976e+07	4.73201031504787e+01,0.00000000000000e+00
1.00257886572588e+07	4.73196877023018e+01,0.00000000000000e+00
1.00262581570053e+07	4.73192722206105e+01,0.00000000000000e+00
1.00267276787381e+07	4.73188567054020e+01,0.00000000000000e+00
1.00271972224582e+07	4.73184411566735e+01,0.00000000000000e+00
1.00276667881667e+07	4.73180255744221e+01,0.00000000000000e+00
1.00281363758646e+07	4.73176099586449e+01,0.00000000000000e+00
1.00286059855529e+07	4.73171943093390e+01,0.00000000000000e+00
1.00290756172327e+07	4.73167786265017e+01,0.00000000000000e+00
1.00295452709049e+07	4.73163629101300e+01,0.00000000000000e+00
1.00300149465706e+07	4.73159471602211e+01,0.00000000000000e+00
1.00304846442309e+07	4.73155313767722e+01,0.00000000000000e+00
1.00309543638868e+07	4.73151155597805e+01,0.00000000000000e+00
1.00314241055392e+07	4.73146997092426e+01,0.00000000000000e+00
1.00318938691893e+07	4.73142838251564e+01,0.00000000000000e+00
1.00323636548380e+07	4.73138679075186e+01,0.00000000000000e+00
1.00328334624865e+07	4.73134519563265e+01,0.00000000000000e+00
1.00333032921356e+07	4.73130359715770e+01,0.00000000000000e+00
1.00337731437865e+07	4.73126199532675e+01,0.00000000000000e+00
1.00342430174402e+07	4.73122039013950e+01,0.00000000000000e+00
1.00347129130977e+07	4.73117878159565e+01,0.00000000000000e+00
1.00351828307600e+07	4.73113716969497e+01,0.00000000000000e+00
1.00356527704282e+07	4.73109555443711e+01,0.00000000000000e+00
1.00361227321033e+07	4.73105393582182e+01,0.00000000000000e+00
1.00365927157864e+07	4.73101231384879e+01,0.00000000000000e+00
1.00370627214784e+07	4.73097068851777e+01,0.00000000000000e+00
1.00375327491804e+07	4.73092905982841e+01,0.00000000000000e+00
1.00380027988934e+07	4.73088742778049e+01,0.00000000000000e+00
1.00384728706185e+07	4.73084579237369e+01,0.00000000000000e+00
1.00389429643567e+07	4.73080415360774e+01,0.00000000000000e+00
1.00394130801089e+07	4.73076251148234e+01,0.00000000000000e+00
1.00398832178764e+07	4.73072086599720e+01,0.00000000000000e+00
1.00403533776600e+07	4.73067921715207e+01,0.00000000000000e+00
1.00408235594608e+07	4.73063756494661e+01,0.00000000000000e+00
1.00412937632799e+07	4.73059590938055e+01,0.00000000000000e+00
1.00417639891182e+07	4.73055425045363e+01,0.00000000000000e+00
1.00422342369769e+07	4.73051258816556e+01,0.00000000000000e+00
1.00427045068568e+07	4.73047092251602e+01,0.00000000000000e+00
1.00431747987592e+07	4.73042925350473e+01,0.00000000000000e+00
1.00436451126849e+07	4.73038758113144e+01,0.00000000000000e+00
1.00441154486351e+07	4.73034590539584e+01,0.00000000000000e+00
1.00445858066107e+07	4.73030422629764e+01,0.00000000000000e+00
1.00450561866129e+07	4.73026254383654e+01,0.00000000000000e+00
1.00455265886425e+07	4.73022085801230e+01,0.00000000000000e+00
1.00459970127007e+07	4.73017916882458e+01,0.00000000000000e+00
1.00464674587885e+07	4.73013747627313e+01,0.00000000000000e+00
1.00469379269069e+07	4.73009578035766e+01,0.00000000000000e+00
1.00474084170569e+07	4.73005408107784e+01,0.00000000000000e+00
1.00478789292397e+07	4.73001237843346e+01,0.00000000000000e+00
1.00483494634561e+07	4.72997067242416e+01,0.00000000000000e+00
1.00488200197073e+07	4.72992896304971e+01,0.00000000000000e+00
1.00492905979943e+07	4.72988725030977e+01,0.00000000000000e+00
1.00497611983181e+07	4.72984553420411e+01,0.00000000000000e+00
1.00502318206797e+07	4.72980381473239e+01,0.00000000000000e+00
1.00507024650802e+07	4.72976209189436e+01,0.00000000000000e+00
1.00511731315206e+07	4.72972036568972e+01,0.00000000000000e+00
1.00516438200019e+07	4.72967863611818e+01,0.00000000000000e+00
1.00521145305252e+07	4.72963690317946e+01,0.00000000000000e+00
1.00525852630915e+07	4.72959516687327e+01,0.00000000000000e+00
1.00530560177019e+07	4.72955342719935e+01,0.00000000000000e+00
1.00535267943573e+07	4.72951168415735e+01,0.00000000000000e+00
1.00539975930588e+07	4.72946993774703e+01,0.00000000000000e+00
1.00544684138074e+07	4.72942818796810e+01,0.00000000000000e+00
1.00549392566042e+07	4.72938643482026e+01,0.00000000000000e+00
1.00554101214502e+07	4.72934467830322e+01,0.00000000000000e+00
1.00558810083464e+07	4.72930291841673e+01,0.00000000000000e+00
1.00563519172939e+07	4.72926115516047e+01,0.00000000000000e+00
1.00568228482936e+07	4.72921938853416e+01,0.00000000000000e+00
1.00572938013467e+07	4.72917761853750e+01,0.00000000000000e+00
1.00577647764542e+07	4.72913584517022e+01,0.00000000000000e+00
1.00582357736170e+07	4.72909406843202e+01,0.00000000000000e+00
1.00587067928363e+07	4.72905228832266e+01,0.00000000000000e+00
1.00591778341130e+07	4.72901050484177e+01,0.00000000000000e+00
1.00596488974483e+07	4.72896871798912e+01,0.00000000000000e+00
1.00601199828430e+07	4.72892692776441e+01,0.00000000000000e+00
1.00605910902983e+07	4.72888513416737e+01,0.00000000000000e+00
1.00610622198152e+07	4.72884333719769e+01,0.00000000000000e+00
1.00615333713947e+07	4.72880153685508e+01,0.00000000000000e+00
1.00620045450379e+07	4.72875973313927e+01,0.00000000000000e+00
1.00624757407457e+07	4.72871792604996e+01,0.00000000000000e+00
1.00629469585193e+07	4.72867611558687e+01,0.00000000000000e+00
1.00634181983596e+07	4.72863430174971e+01,0.00000000000000e+00
1.00638894602678e+07	4.72859248453819e+01,0.00000000000000e+00
1.00643607442447e+07	4.72855066395205e+01,0.00000000000000e+00
1.00648320502915e+07	4.72850883999095e+01,0.00000000000000e+00
1.00653033784092e+07	4.72846701265466e+01,0.00000000000000e+00
1.00657747285988e+07	4.72842518194286e+01,0.00000000000000e+00
1.00662461008614e+07	4.72838334785527e+01,0.00000000000000e+00
1.00667174951979e+07	4.72834151039157e+01,0.00000000000000e+00
1.00671889116095e+07	4.72829966955153e+01,0.00000000000000e+00
1.00676603500971e+07	4.72825782533483e+01,0.00000000000000e+00
1.00681318106619e+07	4.72821597774121e+01,0.00000000000000e+00
1.00686032933047e+07	4.72817412677034e+01,0.00000000000000e+00
1.00690747980267e+07	4.72813227242196e+01,0.00000000000000e+00
1.00695463248289e+07	4.72809041469579e+01,0.00000000000000e+00
1.00700178737124e+07	4.72804855359151e+01,0.00000000000000e+00
1.00704894446781e+07	4.72800668910887e+01,0.00000000000000e+00
1.00709610377270e+07	4.72796482124755e+01,0.00000000000000e+00
1.00714326528604e+07	4.72792295000730e+01,0.00000000000000e+00
1.00719042900790e+07	4.72788107538779e+01,0.00000000000000e+00
1.00723759493841e+07	4.72783919738877e+01,0.00000000000000e+00
1.00728476307766e+07	4.72779731600992e+01,0.00000000000000e+00
1.00733193342576e+07	4.72775543125099e+01,0.00000000000000e+00
1.00737910598281e+07	4.72771354311166e+01,0.00000000000000e+00
1.00742628074891e+07	4.72767165159166e+01,0.00000000000000e+00
1.00747345772417e+07	4.72762975669069e+01,0.00000000000000e+00
1.00752063690869e+07	4.72758785840848e+01,0.00000000000000e+00
1.00756781830257e+07	4.72754595674472e+01,0.00000000000000e+00
1.00761500190592e+07	4.72750405169913e+01,0.00000000000000e+00
1.00766218771884e+07	4.72746214327146e+01,0.00000000000000e+00
1.00770937574143e+07	4.72742023146135e+01,0.00000000000000e+00
1.00775656597381e+07	4.72737831626857e+01,0.00000000000000e+00
1.00780375841606e+07	4.72733639769281e+01,0.00000000000000e+00
1.00785095306830e+07	4.72729447573378e+01,0.00000000000000e+00
1.00789814993063e+07	4.72725255039122e+01,0.00000000000000e+00
1.00794534900314e+07	4.72721062166480e+01,0.00000000000000e+00
1.00799255028596e+07	4.72716868955429e+01,0.00000000000000e+00
1.00803975377917e+07	4.72712675405932e+01,0.00000000000000e+00
1.00808695948288e+07	4.72708481517968e+01,0.00000000000000e+00
1.00813416739720e+07	4.72704287291503e+01,0.00000000000000e+00
1.00818137752223e+07	4.72700092726511e+01,0.00000000000000e+00
1.00822858985808e+07	4.72695897822964e+01,0.00000000000000e+00
1.00827580440484e+07	4.72691702580832e+01,0.00000000000000e+00
1.00832302116261e+07	4.72687507000085e+01,0.00000000000000e+00
1.00837024013152e+07	4.72683311080695e+01,0.00000000000000e+00
1.00841746131164e+07	4.72679114822634e+01,0.00000000000000e+00
1.00846468470310e+07	4.72674918225873e+01,0.00000000000000e+00
1.00851191030600e+07	4.72670721290381e+01,0.00000000000000e+00
1.00855913812043e+07	4.72666524016133e+01,0.00000000000000e+00
1.00860636814650e+07	4.72662326403099e+01,0.00000000000000e+00
1.00865360038432e+07	4.72658128451249e+01,0.00000000000000e+00
1.00870083483398e+07	4.72653930160554e+01,0.00000000000000e+00
1.00874807149560e+07	4.72649731530987e+01,0.00000000000000e+00
1.00879531036927e+07	4.72645532562517e+01,0.00000000000000e+00
1.00884255145510e+07	4.72641333255118e+01,0.00000000000000e+00
1.00888979475320e+07	4.72637133608761e+01,0.00000000000000e+00
1.00893704026366e+07	4.72632933623414e+01,0.00000000000000e+00
1.00898428798659e+07	4.72628733299050e+01,0.00000000000000e+00
1.00903153792209e+07	4.72624532635642e+01,0.00000000000000e+00
1.00907879007027e+07	4.72620331633156e+01,0.00000000000000e+00
1.00912604443123e+07	4.72616130291570e+01,0.00000000000000e+00
1.00917330100508e+07	4.72611928610853e+01,0.00000000000000e+00
1.00922055979191e+07	4.72607726590971e+01,0.00000000000000e+00
1.00926782079184e+07	4.72603524231902e+01,0.00000000000000e+00
1.00931508400496e+07	4.72599321533614e+01,0.00000000000000e+00
1.00936234943138e+07	4.72595118496080e+01,0.00000000000000e+00
1.00940961707120e+07	4.72590915119270e+01,0.00000000000000e+00
1.00945688692453e+07	4.72586711403153e+01,0.00000000000000e+00
1.00950415899147e+07	4.72582507347704e+01,0.00000000000000e+00
1.00955143327212e+07	4.72578302952892e+01,0.00000000000000e+00
1.00959870976659e+07	4.72574098218688e+01,0.00000000000000e+00
1.00964598847498e+07	4.72569893145066e+01,0.00000000000000e+00
1.00969326939739e+07	4.72565687731994e+01,0.00000000000000e+00
1.00974055253393e+07	4.72561481979444e+01,0.00000000000000e+00
1.00978783788471e+07	4.72557275887388e+01,0.00000000000000e+00
1.00983512544982e+07	4.72553069455796e+01,0.00000000000000e+00
1.00988241522936e+07	4.72548862684639e+01,0.00000000000000e+00
1.00992970722346e+07	4.72544655573892e+01,0.00000000000000e+00
1.00997700143219e+07	4.72540448123520e+01,0.00000000000000e+00
1.01002429785568e+07	4.72536240333501e+01,0.00000000000000e+00
1.01007159649403e+07	4.72532032203800e+01,0.00000000000000e+00
1.01011889734733e+07	4.72527823734393e+01,0.00000000000000e+00
1.01016620041569e+07	4.72523614925246e+01,0.00000000000000e+00
1.01021350569922e+07	4.72519405776335e+01,0.00000000000000e+00
1.01026081319801e+07	4.72515196287628e+01,0.00000000000000e+00
1.01030812291218e+07	4.72510986459099e+01,0.00000000000000e+00
1.01035543484183e+07	4.72506776290715e+01,0.00000000000000e+00
1.01040274898705e+07	4.72502565782454e+01,0.00000000000000e+00
1.01045006534796e+07	4.72498354934281e+01,0.00000000000000e+00
1.01049738392466e+07	4.72494143746169e+01,0.00000000000000e+00
1.01054470471725e+07	4.72489932218089e+01,0.00000000000000e+00
1.01059202772583e+07	4.72485720350013e+01,0.00000000000000e+00
1.01063935295051e+07	4.72481508141910e+01,0.00000000000000e+00
1.01068668039140e+07	4.72477295593755e+01,0.00000000000000e+00
1.01073401004859e+07	4.72473082705514e+01,0.00000000000000e+00
1.01078134192220e+07	4.72468869477164e+01,0.00000000000000e+00
1.01082867601231e+07	4.72464655908673e+01,0.00000000000000e+00
1.01087601231905e+07	4.72460442000009e+01,0.00000000000000e+00
1.01092335084250e+07	4.72456227751151e+01,0.00000000000000e+00
1.01097069158279e+07	4.72452013162063e+01,0.00000000000000e+00
1.01101803454000e+07	4.72447798232722e+01,0.00000000000000e+00
1.01106537971424e+07	4.72443582963093e+01,0.00000000000000e+00
1.01111272710563e+07	4.72439367353150e+01,0.00000000000000e+00
1.01116007671425e+07	4.72435151402867e+01,0.00000000000000e+00
1.01120742854022e+07	4.72430935112209e+01,0.00000000000000e+00
1.01125478258363e+07	4.72426718481155e+01,0.00000000000000e+00
1.01130213884460e+07	4.72422501509668e+01,0.00000000000000e+00
1.01134949732323e+07	4.72418284197724e+01,0.00000000000000e+00
1.01139685801961e+07	4.72414066545291e+01,0.00000000000000e+00
1.01144422093386e+07	4.72409848552344e+01,0.00000000000000e+00
1.01149158606608e+07	4.72405630218854e+01,0.00000000000000e+00
1.01153895341636e+07	4.72401411544786e+01,0.00000000000000e+00
1.01158632298483e+07	4.72397192530119e+01,0.00000000000000e+00
1.01163369477157e+07	4.72392973174820e+01,0.00000000000000e+00
1.01168106877670e+07	4.72388753478860e+01,0.00000000000000e+00
1.01172844500031e+07	4.72384533442212e+01,0.00000000000000e+00
1.01177582344251e+07	4.72380313064844e+01,0.00000000000000e+00
1.01182320410341e+07	4.72376092346731e+01,0.00000000000000e+00
1.01187058698311e+07	4.72371871287844e+01,0.00000000000000e+00
1.01191797208171e+07	4.72367649888148e+01,0.00000000000000e+00
1.01196535939932e+07	4.72363428147622e+01,0.00000000000000e+00
1.01201274893604e+07	4.72359206066234e+01,0.00000000000000e+00
1.01206014069197e+07	4.72354983643952e+01,0.00000000000000e+00
1.01210753466722e+07	4.72350760880751e+01,0.00000000000000e+00
1.01215493086190e+07	4.72346537776602e+01,0.00000000000000e+00
1.01220232927610e+07	4.72342314331475e+01,0.00000000000000e+00
1.01224972990993e+07	4.72338090545341e+01,0.00000000000000e+00
1.01229713276349e+07	4.72333866418170e+01,0.00000000000000e+00
1.01234453783689e+07	4.72329641949935e+01,0.00000000000000e+00
1.01239194513024e+07	4.72325417140608e+01,0.00000000000000e+00
1.01243935464363e+07	4.72321191990156e+01,0.00000000000000e+00
1.01248676637717e+07	4.72316966498555e+01,0.00000000000000e+00
1.01253418033096e+07	4.72312740665773e+01,0.00000000000000e+00
1.01258159650511e+07	4.72308514491781e+01,0.00000000000000e+00
1.01262901489973e+07	4.72304287976554e+01,0.00000000000000e+00
1.01267643551491e+07	4.72300061120058e+01,0.00000000000000e+00
1.01272385835076e+07	4.72295833922266e+01,0.00000000000000e+00
1.01277128340738e+07	4.72291606383150e+01,0.00000000000000e+00
1.01281871068488e+07	4.72287378502681e+01,0.00000000000000e+00
1.01286614018337e+07	4.72283150280829e+01,0.00000000000000e+00
1.01291357190294e+07	4.72278921717567e+01,0.00000000000000e+00
1.01296100584370e+07	4.72274692812863e+01,0.00000000000000e+00
1.01300844200575e+07	4.72270463566690e+01,0.00000000000000e+00
1.01305588038920e+07	4.72266233979020e+01,0.00000000000000e+00
1.01310332099415e+07	4.72262004049821e+01,0.00000000000000e+00
1.01315076382071e+07	4.72257773779067e+01,0.00000000000000e+00
1.01319820886898e+07	4.72253543166729e+01,0.00000000000000e+00
1.01324565613906e+07	4.72249312212777e+01,0.00000000000000e+00
1.01329310563107e+07	4.72245080917181e+01,0.00000000000000e+00
1.01334055734509e+07	4.72240849279916e+01,0.00000000000000e+00
1.01338801128124e+07	4.72236617300947e+01,0.00000000000000e+00
1.01343546743962e+07	4.72232384980251e+01,0.00000000000000e+00
1.01348292582033e+07	4.72228152317796e+01,0.00000000000000e+00
1.01353038642348e+07	4.72223919313554e+01,0.00000000000000e+00
1.01357784924918e+07	4.72219685967497e+01,0.00000000000000e+00
1.01362531429752e+07	4.72215452279593e+01,0.00000000000000e+00
1.01367278156861e+07	4.72211218249814e+01,0.00000000000000e+00
1.01372025106256e+07	4.72206983878134e+01,0.00000000000000e+00
1.01376772277947e+07	4.72202749164521e+01,0.00000000000000e+00
1.01381519671943e+07	4.72198514108948e+01,0.00000000000000e+00
1.01386267288257e+07	4.72194278711384e+01,0.00000000000000e+00
1.01391015126898e+07	4.72190042971801e+01,0.00000000000000e+00
1.01395763187876e+07	4.72185806890172e+01,0.00000000000000e+00
1.01400511471202e+07	4.72181570466466e+01,0.00000000000000e+00
1.01405259976886e+07	4.72177333700654e+01,0.00000000000000e+00
1.01410008704940e+07	4.72173096592707e+01,0.00000000000000e+00
1.01414757655372e+07	4.72168859142596e+01,0.00000000000000e+00
1.01419506828194e+07	4.72164621350295e+01,0.00000000000000e+00
1.01424256223416e+07	4.72160383215771e+01,0.00000000000000e+00
1.01429005841049e+07	4.72156144738996e+01,0.00000000000000e+00
1.01433755681102e+07	4.72151905919943e+01,0.00000000000000e+00
1.01438505743586e+07	4.72147666758580e+01,0.00000000000000e+00
1.01443256028513e+07	4.72143427254881e+01,0.00000000000000e+00
1.01448006535891e+07	4.72139187408818e+01,0.00000000000000e+00
1.01452757265732e+07	4.72134947220357e+01,0.00000000000000e+00
1.01457508218045e+07	4.72130706689474e+01,0.00000000000000e+00
1.01462259392842e+07	4.72126465816136e+01,0.00000000000000e+00
1.01467010790133e+07	4.72122224600317e+01,0.00000000000000e+00
1.01471762409928e+07	4.72117983041989e+01,0.00000000000000e+00
1.01476514252238e+07	4.72113741141118e+01,0.00000000000000e+00
1.01481266317072e+07	4.72109498897678e+01,0.00000000000000e+00
1.01486018604442e+07	4.72105256311643e+01,0.00000000000000e+00
1.01490771114358e+07	4.72101013382980e+01,0.00000000000000e+00
