Freq.	abs(V(drain))
1.00000000000000e+07	1.05124614361636e+01,0.00000000000000e+00
1.00004682920841e+07	1.05131317521933e+01,0.00000000000000e+00
1.00009366060979e+07	1.05138021298973e+01,0.00000000000000e+00
1.00014049420425e+07	1.05144725692839e+01,0.00000000000000e+00
1.00018732999190e+07	1.05151430703618e+01,0.00000000000000e+00
1.00023416797282e+07	1.05158136331393e+01,0.00000000000000e+00
1.00028100814713e+07	1.05164842576251e+01,0.00000000000000e+00
1.00032785051493e+07	1.05171549438277e+01,0.00000000000000e+00
1.00037469507632e+07	1.05178256917553e+01,0.00000000000000e+00
1.00042154183140e+07	1.05184965014169e+01,0.00000000000000e+00
1.00046839078028e+07	1.05191673728206e+01,0.00000000000000e+00
1.00051524192306e+07	1.05198383059752e+01,0.00000000000000e+00
1.00056209525984e+07	1.05205093008889e+01,0.00000000000000e+00
1.00060895079073e+07	1.05211803575706e+01,0.00000000000000e+00
1.00065580851582e+07	1.05218514760286e+01,0.00000000000000e+00
1.00070266843522e+07	1.05225226562715e+01,0.00000000000000e+00
1.00074953054904e+07	1.05231938983077e+01,0.00000000000000e+00
1.00079639485737e+07	1.05238652021459e+01,0.00000000000000e+00
1.00084326136032e+07	1.05245365677945e+01,0.00000000000000e+00
1.00089013005799e+07	1.05252079952620e+01,0.00000000000000e+00
1.00093700095049e+07	1.05258794845571e+01,0.00000000000000e+00
1.00098387403791e+07	1.05265510356881e+01,0.00000000000000e+00
1.00103074932036e+07	1.05272226486638e+01,0.00000000000000e+00
1.00107762679794e+07	1.05278943234926e+01,0.00000000000000e+00
1.00112450647076e+07	1.05285660601829e+01,0.00000000000000e+00
1.00117138833892e+07	1.05292378587434e+01,0.00000000000000e+00
1.00121827240252e+07	1.05299097191827e+01,0.00000000000000e+00
1.00126515866166e+07	1.05305816415092e+01,0.00000000000000e+00
1.00131204711645e+07	1.05312536257315e+01,0.00000000000000e+00
1.00135893776698e+07	1.05319256718581e+01,0.00000000000000e+00
1.00140583061337e+07	1.05325977798975e+01,0.00000000000000e+00
1.00145272565572e+07	1.05332699498585e+01,0.00000000000000e+00
1.00149962289412e+07	1.05339421817493e+01,0.00000000000000e+00
1.00154652232868e+07	1.05346144755788e+01,0.00000000000000e+00
1.00159342395951e+07	1.05352868313551e+01,0.00000000000000e+00
1.00164032778670e+07	1.05359592490874e+01,0.00000000000000e+00
1.00168723381036e+07	1.05366317287836e+01,0.00000000000000e+00
1.00173414203059e+07	1.05373042704527e+01,0.00000000000000e+00
1.00178105244750e+07	1.05379768741030e+01,0.00000000000000e+00
1.00182796506119e+07	1.05386495397432e+01,0.00000000000000e+00
1.00187487987175e+07	1.05393222673818e+01,0.00000000000000e+00
1.00192179687930e+07	1.05399950570274e+01,0.00000000000000e+00
1.00196871608394e+07	1.05406679086885e+01,0.00000000000000e+00
1.00201563748576e+07	1.05413408223737e+01,0.00000000000000e+00
1.00206256108488e+07	1.05420137980916e+01,0.00000000000000e+00
1.00210948688139e+07	1.05426868358508e+01,0.00000000000000e+00
1.00215641487540e+07	1.05433599356598e+01,0.00000000000000e+00
1.00220334506701e+07	1.05440330975271e+01,0.00000000000000e+00
1.00225027745633e+07	1.05447063214615e+01,0.00000000000000e+00
1.00229721204345e+07	1.05453796074713e+01,0.00000000000000e+00
1.00234414882848e+07	1.05460529555652e+01,0.00000000000000e+00
1.00239108781152e+07	1.05467263657519e+01,0.00000000000000e+00
1.00243802899268e+07	1.05473998380399e+01,0.00000000000000e+00
1.00248497237206e+07	1.05480733724376e+01,0.00000000000000e+00
1.00253191794976e+07	1.05487469689539e+01,0.00000000000000e+00
1.00257886572588e+07	1.05494206275971e+01,0.00000000000000e+00
1.00262581570053e+07	1.05500943483758e+01,0.00000000000000e+00
1.00267276787381e+07	1.05507681312989e+01,0.00000000000000e+00
1.00271972224582e+07	1.05514419763747e+01,0.00000000000000e+00
1.00276667881667e+07	1.05521158836118e+01,0.00000000000000e+00
1.00281363758646e+07	1.05527898530190e+01,0.00000000000000e+00
1.00286059855529e+07	1.05534638846047e+01,0.00000000000000e+00
1.00290756172327e+07	1.05541379783776e+01,0.00000000000000e+00
1.00295452709049e+07	1.05548121343461e+01,0.00000000000000e+00
1.00300149465706e+07	1.05554863525191e+01,0.00000000000000e+00
1.00304846442309e+07	1.05561606329049e+01,0.00000000000000e+00
1.00309543638868e+07	1.05568349755123e+01,0.00000000000000e+00
1.00314241055392e+07	1.05575093803499e+01,0.00000000000000e+00
1.00318938691893e+07	1.05581838474263e+01,0.00000000000000e+00
1.00323636548380e+07	1.05588583767499e+01,0.00000000000000e+00
1.00328334624865e+07	1.05595329683295e+01,0.00000000000000e+00
1.00333032921356e+07	1.05602076221738e+01,0.00000000000000e+00
1.00337731437865e+07	1.05608823382913e+01,0.00000000000000e+00
1.00342430174402e+07	1.05615571166905e+01,0.00000000000000e+00
1.00347129130977e+07	1.05622319573801e+01,0.00000000000000e+00
1.00351828307600e+07	1.05629068603688e+01,0.00000000000000e+00
1.00356527704282e+07	1.05635818256651e+01,0.00000000000000e+00
1.00361227321033e+07	1.05642568532777e+01,0.00000000000000e+00
1.00365927157864e+07	1.05649319432152e+01,0.00000000000000e+00
1.00370627214784e+07	1.05656070954862e+01,0.00000000000000e+00
1.00375327491804e+07	1.05662823100994e+01,0.00000000000000e+00
1.00380027988934e+07	1.05669575870632e+01,0.00000000000000e+00
1.00384728706185e+07	1.05676329263864e+01,0.00000000000000e+00
1.00389429643567e+07	1.05683083280777e+01,0.00000000000000e+00
1.00394130801089e+07	1.05689837921456e+01,0.00000000000000e+00
1.00398832178764e+07	1.05696593185987e+01,0.00000000000000e+00
1.00403533776600e+07	1.05703349074459e+01,0.00000000000000e+00
1.00408235594608e+07	1.05710105586954e+01,0.00000000000000e+00
1.00412937632799e+07	1.05716862723563e+01,0.00000000000000e+00
1.00417639891182e+07	1.05723620484370e+01,0.00000000000000e+00
1.00422342369769e+07	1.05730378869460e+01,0.00000000000000e+00
1.00427045068568e+07	1.05737137878921e+01,0.00000000000000e+00
1.00431747987592e+07	1.05743897512840e+01,0.00000000000000e+00
1.00436451126849e+07	1.05750657771303e+01,0.00000000000000e+00
1.00441154486351e+07	1.05757418654397e+01,0.00000000000000e+00
1.00445858066107e+07	1.05764180162206e+01,0.00000000000000e+00
1.00450561866129e+07	1.05770942294819e+01,0.00000000000000e+00
1.00455265886425e+07	1.05777705052321e+01,0.00000000000000e+00
1.00459970127007e+07	1.05784468434800e+01,0.00000000000000e+00
1.00464674587885e+07	1.05791232442343e+01,0.00000000000000e+00
1.00469379269069e+07	1.05797997075031e+01,0.00000000000000e+00
1.00474084170569e+07	1.05804762332959e+01,0.00000000000000e+00
1.00478789292397e+07	1.05811528216208e+01,0.00000000000000e+00
1.00483494634561e+07	1.05818294724867e+01,0.00000000000000e+00
1.00488200197073e+07	1.05825061859021e+01,0.00000000000000e+00
1.00492905979943e+07	1.05831829618757e+01,0.00000000000000e+00
1.00497611983181e+07	1.05838598004163e+01,0.00000000000000e+00
1.00502318206797e+07	1.05845367015323e+01,0.00000000000000e+00
1.00507024650802e+07	1.05852136652325e+01,0.00000000000000e+00
1.00511731315206e+07	1.05858906915257e+01,0.00000000000000e+00
1.00516438200019e+07	1.05865677804204e+01,0.00000000000000e+00
1.00521145305252e+07	1.05872449319255e+01,0.00000000000000e+00
1.00525852630915e+07	1.05879221460494e+01,0.00000000000000e+00
1.00530560177019e+07	1.05885994228008e+01,0.00000000000000e+00
1.00535267943573e+07	1.05892767621884e+01,0.00000000000000e+00
1.00539975930588e+07	1.05899541642213e+01,0.00000000000000e+00
1.00544684138074e+07	1.05906316289076e+01,0.00000000000000e+00
1.00549392566042e+07	1.05913091562562e+01,0.00000000000000e+00
1.00554101214502e+07	1.05919867462758e+01,0.00000000000000e+00
1.00558810083464e+07	1.05926643989750e+01,0.00000000000000e+00
1.00563519172939e+07	1.05933421143627e+01,0.00000000000000e+00
1.00568228482936e+07	1.05940198924473e+01,0.00000000000000e+00
1.00572938013467e+07	1.05946977332377e+01,0.00000000000000e+00
1.00577647764542e+07	1.05953756367426e+01,0.00000000000000e+00
1.00582357736170e+07	1.05960536029706e+01,0.00000000000000e+00
1.00587067928363e+07	1.05967316319303e+01,0.00000000000000e+00
1.00591778341130e+07	1.05974097236306e+01,0.00000000000000e+00
1.00596488974483e+07	1.05980878780801e+01,0.00000000000000e+00
1.00601199828430e+07	1.05987660952875e+01,0.00000000000000e+00
1.00605910902983e+07	1.05994443752614e+01,0.00000000000000e+00
1.00610622198152e+07	1.06001227180107e+01,0.00000000000000e+00
1.00615333713947e+07	1.06008011235440e+01,0.00000000000000e+00
1.00620045450379e+07	1.06014795918701e+01,0.00000000000000e+00
1.00624757407457e+07	1.06021581229976e+01,0.00000000000000e+00
1.00629469585193e+07	1.06028367169353e+01,0.00000000000000e+00
1.00634181983596e+07	1.06035153736916e+01,0.00000000000000e+00
1.00638894602678e+07	1.06041940932756e+01,0.00000000000000e+00
1.00643607442447e+07	1.06048728756959e+01,0.00000000000000e+00
1.00648320502915e+07	1.06055517209611e+01,0.00000000000000e+00
1.00653033784092e+07	1.06062306290802e+01,0.00000000000000e+00
1.00657747285988e+07	1.06069096000615e+01,0.00000000000000e+00
1.00662461008614e+07	1.06075886339140e+01,0.00000000000000e+00
1.00667174951979e+07	1.06082677306464e+01,0.00000000000000e+00
1.00671889116095e+07	1.06089468902673e+01,0.00000000000000e+00
1.00676603500971e+07	1.06096261127857e+01,0.00000000000000e+00
1.00681318106619e+07	1.06103053982099e+01,0.00000000000000e+00
1.00686032933047e+07	1.06109847465490e+01,0.00000000000000e+00
1.00690747980267e+07	1.06116641578115e+01,0.00000000000000e+00
1.00695463248289e+07	1.06123436320063e+01,0.00000000000000e+00
1.00700178737124e+07	1.06130231691421e+01,0.00000000000000e+00
1.00704894446781e+07	1.06137027692275e+01,0.00000000000000e+00
1.00709610377270e+07	1.06143824322714e+01,0.00000000000000e+00
1.00714326528604e+07	1.06150621582822e+01,0.00000000000000e+00
1.00719042900790e+07	1.06157419472692e+01,0.00000000000000e+00
1.00723759493841e+07	1.06164217992408e+01,0.00000000000000e+00
1.00728476307766e+07	1.06171017142058e+01,0.00000000000000e+00
1.00733193342576e+07	1.06177816921728e+01,0.00000000000000e+00
1.00737910598281e+07	1.06184617331506e+01,0.00000000000000e+00
1.00742628074891e+07	1.06191418371482e+01,0.00000000000000e+00
1.00747345772417e+07	1.06198220041741e+01,0.00000000000000e+00
1.00752063690869e+07	1.06205022342371e+01,0.00000000000000e+00
1.00756781830257e+07	1.06211825273461e+01,0.00000000000000e+00
1.00761500190592e+07	1.06218628835096e+01,0.00000000000000e+00
1.00766218771884e+07	1.06225433027363e+01,0.00000000000000e+00
1.00770937574143e+07	1.06232237850355e+01,0.00000000000000e+00
1.00775656597381e+07	1.06239043304153e+01,0.00000000000000e+00
1.00780375841606e+07	1.06245849388849e+01,0.00000000000000e+00
1.00785095306830e+07	1.06252656104530e+01,0.00000000000000e+00
1.00789814993063e+07	1.06259463451281e+01,0.00000000000000e+00
1.00794534900314e+07	1.06266271429192e+01,0.00000000000000e+00
1.00799255028596e+07	1.06273080038350e+01,0.00000000000000e+00
1.00803975377917e+07	1.06279889278843e+01,0.00000000000000e+00
1.00808695948288e+07	1.06286699150757e+01,0.00000000000000e+00
1.00813416739720e+07	1.06293509654183e+01,0.00000000000000e+00
1.00818137752223e+07	1.06300320789206e+01,0.00000000000000e+00
1.00822858985808e+07	1.06307132555913e+01,0.00000000000000e+00
1.00827580440484e+07	1.06313944954397e+01,0.00000000000000e+00
1.00832302116261e+07	1.06320757984739e+01,0.00000000000000e+00
1.00837024013152e+07	1.06327571647031e+01,0.00000000000000e+00
1.00841746131164e+07	1.06334385941359e+01,0.00000000000000e+00
1.00846468470310e+07	1.06341200867813e+01,0.00000000000000e+00
1.00851191030600e+07	1.06348016426478e+01,0.00000000000000e+00
1.00855913812043e+07	1.06354832617444e+01,0.00000000000000e+00
1.00860636814650e+07	1.06361649440798e+01,0.00000000000000e+00
1.00865360038432e+07	1.06368466896628e+01,0.00000000000000e+00
1.00870083483398e+07	1.06375284985022e+01,0.00000000000000e+00
1.00874807149560e+07	1.06382103706067e+01,0.00000000000000e+00
1.00879531036927e+07	1.06388923059853e+01,0.00000000000000e+00
1.00884255145510e+07	1.06395743046465e+01,0.00000000000000e+00
1.00888979475320e+07	1.06402563665994e+01,0.00000000000000e+00
1.00893704026366e+07	1.06409384918526e+01,0.00000000000000e+00
1.00898428798659e+07	1.06416206804149e+01,0.00000000000000e+00
1.00903153792209e+07	1.06423029322952e+01,0.00000000000000e+00
1.00907879007027e+07	1.06429852475023e+01,0.00000000000000e+00
1.00912604443123e+07	1.06436676260449e+01,0.00000000000000e+00
1.00917330100508e+07	1.06443500679320e+01,0.00000000000000e+00
1.00922055979191e+07	1.06450325731723e+01,0.00000000000000e+00
1.00926782079184e+07	1.06457151417744e+01,0.00000000000000e+00
1.00931508400496e+07	1.06463977737474e+01,0.00000000000000e+00
1.00936234943138e+07	1.06470804691001e+01,0.00000000000000e+00
1.00940961707120e+07	1.06477632278411e+01,0.00000000000000e+00
1.00945688692453e+07	1.06484460499794e+01,0.00000000000000e+00
1.00950415899147e+07	1.06491289355239e+01,0.00000000000000e+00
1.00955143327212e+07	1.06498118844830e+01,0.00000000000000e+00
1.00959870976659e+07	1.06504948968660e+01,0.00000000000000e+00
1.00964598847498e+07	1.06511779726814e+01,0.00000000000000e+00
1.00969326939739e+07	1.06518611119382e+01,0.00000000000000e+00
1.00974055253393e+07	1.06525443146452e+01,0.00000000000000e+00
1.00978783788471e+07	1.06532275808112e+01,0.00000000000000e+00
1.00983512544982e+07	1.06539109104450e+01,0.00000000000000e+00
1.00988241522936e+07	1.06545943035556e+01,0.00000000000000e+00
1.00992970722346e+07	1.06552777601515e+01,0.00000000000000e+00
1.00997700143219e+07	1.06559612802418e+01,0.00000000000000e+00
1.01002429785568e+07	1.06566448638352e+01,0.00000000000000e+00
1.01007159649403e+07	1.06573285109407e+01,0.00000000000000e+00
1.01011889734733e+07	1.06580122215668e+01,0.00000000000000e+00
1.01016620041569e+07	1.06586959957228e+01,0.00000000000000e+00
1.01021350569922e+07	1.06593798334174e+01,0.00000000000000e+00
1.01026081319801e+07	1.06600637346591e+01,0.00000000000000e+00
1.01030812291218e+07	1.06607476994572e+01,0.00000000000000e+00
1.01035543484183e+07	1.06614317278203e+01,0.00000000000000e+00
1.01040274898705e+07	1.06621158197572e+01,0.00000000000000e+00
1.01045006534796e+07	1.06627999752770e+01,0.00000000000000e+00
1.01049738392466e+07	1.06634841943883e+01,0.00000000000000e+00
1.01054470471725e+07	1.06641684771000e+01,0.00000000000000e+00
1.01059202772583e+07	1.06648528234212e+01,0.00000000000000e+00
1.01063935295051e+07	1.06655372333604e+01,0.00000000000000e+00
1.01068668039140e+07	1.06662217069266e+01,0.00000000000000e+00
1.01073401004859e+07	1.06669062441289e+01,0.00000000000000e+00
1.01078134192220e+07	1.06675908449757e+01,0.00000000000000e+00
1.01082867601231e+07	1.06682755094761e+01,0.00000000000000e+00
1.01087601231905e+07	1.06689602376391e+01,0.00000000000000e+00
1.01092335084250e+07	1.06696450294734e+01,0.00000000000000e+00
1.01097069158279e+07	1.06703298849879e+01,0.00000000000000e+00
1.01101803454000e+07	1.06710148041914e+01,0.00000000000000e+00
1.01106537971424e+07	1.06716997870929e+01,0.00000000000000e+00
1.01111272710563e+07	1.06723848337013e+01,0.00000000000000e+00
1.01116007671425e+07	1.06730699440252e+01,0.00000000000000e+00
1.01120742854022e+07	1.06737551180737e+01,0.00000000000000e+00
1.01125478258363e+07	1.06744403558557e+01,0.00000000000000e+00
1.01130213884460e+07	1.06751256573800e+01,0.00000000000000e+00
1.01134949732323e+07	1.06758110226555e+01,0.00000000000000e+00
1.01139685801961e+07	1.06764964516912e+01,0.00000000000000e+00
1.01144422093386e+07	1.06771819444957e+01,0.00000000000000e+00
1.01149158606608e+07	1.06778675010781e+01,0.00000000000000e+00
1.01153895341636e+07	1.06785531214472e+01,0.00000000000000e+00
1.01158632298483e+07	1.06792388056120e+01,0.00000000000000e+00
1.01163369477157e+07	1.06799245535812e+01,0.00000000000000e+00
1.01168106877670e+07	1.06806103653639e+01,0.00000000000000e+00
1.01172844500031e+07	1.06812962409689e+01,0.00000000000000e+00
1.01177582344251e+07	1.06819821804051e+01,0.00000000000000e+00
1.01182320410341e+07	1.06826681836814e+01,0.00000000000000e+00
1.01187058698311e+07	1.06833542508066e+01,0.00000000000000e+00
1.01191797208171e+07	1.06840403817897e+01,0.00000000000000e+00
1.01196535939932e+07	1.06847265766396e+01,0.00000000000000e+00
1.01201274893604e+07	1.06854128353653e+01,0.00000000000000e+00
1.01206014069197e+07	1.06860991579754e+01,0.00000000000000e+00
1.01210753466722e+07	1.06867855444793e+01,0.00000000000000e+00
1.01215493086190e+07	1.06874719948853e+01,0.00000000000000e+00
1.01220232927610e+07	1.06881585092028e+01,0.00000000000000e+00
1.01224972990993e+07	1.06888450874404e+01,0.00000000000000e+00
1.01229713276349e+07	1.06895317296073e+01,0.00000000000000e+00
1.01234453783689e+07	1.06902184357122e+01,0.00000000000000e+00
1.01239194513024e+07	1.06909052057641e+01,0.00000000000000e+00
1.01243935464363e+07	1.06915920397719e+01,0.00000000000000e+00
1.01248676637717e+07	1.06922789377445e+01,0.00000000000000e+00
1.01253418033096e+07	1.06929658996908e+01,0.00000000000000e+00
1.01258159650511e+07	1.06936529256198e+01,0.00000000000000e+00
1.01262901489973e+07	1.06943400155403e+01,0.00000000000000e+00
1.01267643551491e+07	1.06950271694614e+01,0.00000000000000e+00
1.01272385835076e+07	1.06957143873919e+01,0.00000000000000e+00
1.01277128340738e+07	1.06964016693408e+01,0.00000000000000e+00
1.01281871068488e+07	1.06970890153170e+01,0.00000000000000e+00
1.01286614018337e+07	1.06977764253293e+01,0.00000000000000e+00
1.01291357190294e+07	1.06984638993870e+01,0.00000000000000e+00
1.01296100584370e+07	1.06991514374986e+01,0.00000000000000e+00
1.01300844200575e+07	1.06998390396733e+01,0.00000000000000e+00
1.01305588038920e+07	1.07005267059199e+01,0.00000000000000e+00
1.01310332099415e+07	1.07012144362476e+01,0.00000000000000e+00
1.01315076382071e+07	1.07019022306650e+01,0.00000000000000e+00
1.01319820886898e+07	1.07025900891812e+01,0.00000000000000e+00
1.01324565613906e+07	1.07032780118052e+01,0.00000000000000e+00
1.01329310563107e+07	1.07039659985460e+01,0.00000000000000e+00
1.01334055734509e+07	1.07046540494124e+01,0.00000000000000e+00
1.01338801128124e+07	1.07053421644132e+01,0.00000000000000e+00
1.01343546743962e+07	1.07060303435576e+01,0.00000000000000e+00
1.01348292582033e+07	1.07067185868547e+01,0.00000000000000e+00
1.01353038642348e+07	1.07074068943131e+01,0.00000000000000e+00
1.01357784924918e+07	1.07080952659420e+01,0.00000000000000e+00
1.01362531429752e+07	1.07087837017503e+01,0.00000000000000e+00
1.01367278156861e+07	1.07094722017468e+01,0.00000000000000e+00
1.01372025106256e+07	1.07101607659406e+01,0.00000000000000e+00
1.01376772277947e+07	1.07108493943408e+01,0.00000000000000e+00
1.01381519671943e+07	1.07115380869561e+01,0.00000000000000e+00
1.01386267288257e+07	1.07122268437957e+01,0.00000000000000e+00
1.01391015126898e+07	1.07129156648683e+01,0.00000000000000e+00
1.01395763187876e+07	1.07136045501831e+01,0.00000000000000e+00
1.01400511471202e+07	1.07142934997490e+01,0.00000000000000e+00
1.01405259976886e+07	1.07149825135750e+01,0.00000000000000e+00
1.01410008704940e+07	1.07156715916700e+01,0.00000000000000e+00
1.01414757655372e+07	1.07163607340432e+01,0.00000000000000e+00
1.01419506828194e+07	1.07170499407031e+01,0.00000000000000e+00
1.01424256223416e+07	1.07177392116592e+01,0.00000000000000e+00
1.01429005841049e+07	1.07184285469202e+01,0.00000000000000e+00
1.01433755681102e+07	1.07191179464952e+01,0.00000000000000e+00
1.01438505743586e+07	1.07198074103932e+01,0.00000000000000e+00
1.01443256028513e+07	1.07204969386230e+01,0.00000000000000e+00
1.01448006535891e+07	1.07211865311937e+01,0.00000000000000e+00
1.01452757265732e+07	1.07218761881143e+01,0.00000000000000e+00
1.01457508218045e+07	1.07225659093939e+01,0.00000000000000e+00
1.01462259392842e+07	1.07232556950412e+01,0.00000000000000e+00
1.01467010790133e+07	1.07239455450656e+01,0.00000000000000e+00
1.01471762409928e+07	1.07246354594757e+01,0.00000000000000e+00
1.01476514252238e+07	1.07253254382807e+01,0.00000000000000e+00
1.01481266317072e+07	1.07260154814896e+01,0.00000000000000e+00
1.01486018604442e+07	1.07267055891114e+01,0.00000000000000e+00
1.01490771114358e+07	1.07273957611552e+01,0.00000000000000e+00
